time	V(n002)	I(Rq)
Step Information: C_d=20f  (Run: 1/5)
0.000000000000000e+00	1.666888e+00	6.662229e-07
1.000000000000000e-08	1.666888e+00	6.662229e-07
1.000953125000000e-08	1.645532e+00	7.089366e-07
1.002859375000000e-08	1.519071e+00	9.618577e-07
1.004680874403468e-08	1.355962e+00	1.288076e-06
1.006277606791556e-08	1.236532e+00	1.526935e-06
1.007926409530509e-08	1.157858e+00	1.684284e-06
1.010000000000000e-08	1.088931e+00	1.822138e-06
1.010622077140847e-08	1.076862e+00	1.846276e-06
1.011451513328644e-08	1.063666e+00	1.872668e-06
1.013110385704237e-08	1.044712e+00	1.910577e-06
1.016428130455423e-08	1.023658e+00	1.952685e-06
1.023063619957795e-08	1.006963e+00	1.986074e-06
1.030000000000000e-08	1.002102e+00	1.995795e-06
1.032080914012661e-08	1.002063e+00	1.995873e-06
1.034855466029544e-08	1.002258e+00	1.995483e-06
1.040000000000000e-08	1.003287e+00	1.993426e-06
1.189598064013875e-08	1.073664e+00	1.852672e-06
1.365379314013874e-08	1.146915e+00	1.706170e-06
1.560691814013875e-08	1.217746e+00	1.564508e-06
1.795066814013877e-08	1.290126e+00	1.419747e-06
2.029441814013878e-08	1.350842e+00	1.298315e-06
2.283348064013880e-08	1.405628e+00	1.188744e-06
2.556785564013882e-08	1.454056e+00	1.091888e-06
2.830223064013884e-08	1.493508e+00	1.012985e-06
3.123191814013884e-08	1.527699e+00	9.446013e-07
3.455223064013881e-08	1.558373e+00	8.832531e-07
3.806785564013877e-08	1.583518e+00	8.329648e-07
4.216941814013874e-08	1.605588e+00	7.888229e-07
4.666160564013869e-08	1.623117e+00	7.537650e-07
5.213035564013864e-08	1.637841e+00	7.243187e-07
5.877098064013858e-08	1.649233e+00	7.015342e-07
6.756004314013876e-08	1.657754e+00	6.844924e-07
8.045066814013907e-08	1.663414e+00	6.731730e-07
1.056459806401397e-07	1.666363e+00	6.672739e-07
1.923647306401418e-07	1.666888e+00	6.662245e-07
1.999819181401420e-07	1.666888e+00	6.662239e-07
2.000000000000000e-07	1.666888e+00	6.662239e-07
Step Information: C_d=40f  (Run: 2/5)
0.000000000000000e+00	1.666888e+00	6.662229e-07
1.000000000000000e-08	1.666888e+00	6.662229e-07
1.000953125000000e-08	1.651673e+00	6.966536e-07
1.002859375000000e-08	1.558760e+00	8.824796e-07
1.005017400530598e-08	1.412858e+00	1.174283e-06
1.006993952319311e-08	1.292216e+00	1.415567e-06
1.008068119606207e-08	1.243828e+00	1.512343e-06
1.010000000000000e-08	1.174293e+00	1.651414e-06
1.010579564118138e-08	1.158792e+00	1.682415e-06
1.011352316275655e-08	1.140592e+00	1.718815e-06
1.012897820590689e-08	1.111300e+00	1.777400e-06
1.015988829220758e-08	1.071963e+00	1.856074e-06
1.022170846480896e-08	1.030379e+00	1.939242e-06
1.030000000000000e-08	1.006177e+00	1.987645e-06
1.030782915351910e-08	1.005713e+00	1.988575e-06
1.032348746055731e-08	1.004928e+00	1.990145e-06
1.035480407463373e-08	1.004033e+00	1.991933e-06
1.040000000000000e-08	1.003781e+00	1.992437e-06
1.263785932980749e-08	1.073942e+00	1.852115e-06
1.517692182980749e-08	1.144615e+00	1.710770e-06
1.810660932980751e-08	1.215759e+00	1.568483e-06
2.142692182980753e-08	1.284746e+00	1.430508e-06
2.494254682980756e-08	1.346329e+00	1.307343e-06
2.845817182980759e-08	1.397987e+00	1.204026e-06
3.216910932980757e-08	1.443512e+00	1.112976e-06
3.607535932980753e-08	1.483132e+00	1.033735e-06
4.017692182980749e-08	1.517194e+00	9.656123e-07
4.447379682980745e-08	1.546126e+00	9.077474e-07
4.916129682980741e-08	1.571350e+00	8.572991e-07
5.423942182980736e-08	1.592767e+00	8.144653e-07
5.990348432980731e-08	1.611043e+00	7.779141e-07
6.634879682980747e-08	1.626424e+00	7.471523e-07
7.377067182980765e-08	1.638965e+00	7.220692e-07
8.255973432980786e-08	1.648893e+00	7.022148e-07
9.369254682980813e-08	1.656573e+00	6.868547e-07
1.087316093298085e-07	1.662024e+00	6.759521e-07
1.329503593298091e-07	1.665439e+00	6.691226e-07
1.921300468298105e-07	1.666813e+00	6.663735e-07
1.999425468298107e-07	1.666838e+00	6.663249e-07
2.000000000000000e-07	1.666838e+00	6.663245e-07
Step Information: C_d=60f  (Run: 3/5)
0.000000000000000e+00	1.666888e+00	6.662229e-07
1.000000000000000e-08	1.666888e+00	6.662229e-07
1.000953125000000e-08	1.655071e+00	6.898572e-07
1.002859375000000e-08	1.581747e+00	8.365069e-07
1.004942338964516e-08	1.466540e+00	1.066920e-06
1.006941895957423e-08	1.360201e+00	1.279597e-06
1.008013929133437e-08	1.312560e+00	1.374879e-06
1.009119897531692e-08	1.272947e+00	1.454107e-06
1.010000000000000e-08	1.244121e+00	1.511758e-06
1.010616071727815e-08	1.226367e+00	1.547266e-06
1.011320153702462e-08	1.207990e+00	1.584020e-06
1.012728317651754e-08	1.176456e+00	1.647088e-06
1.015544645550340e-08	1.129124e+00	1.741752e-06
1.021177301347510e-08	1.070784e+00	1.858432e-06
1.030000000000000e-08	1.018605e+00	1.962790e-06
1.030882269865249e-08	1.017007e+00	1.965985e-06
1.032646809595747e-08	1.014246e+00	1.971509e-06
1.036175889056743e-08	1.010441e+00	1.979117e-06
1.040000000000000e-08	1.008281e+00	1.983437e-06
1.357060648942519e-08	1.082082e+00	1.835837e-06
1.708623148942521e-08	1.154292e+00	1.691416e-06
2.118779398942524e-08	1.227348e+00	1.545305e-06
2.567998148942527e-08	1.295470e+00	1.409060e-06
3.017216898942530e-08	1.353035e+00	1.293931e-06
3.485966898942526e-08	1.403612e+00	1.192775e-06
3.974248148942521e-08	1.447650e+00	1.104699e-06
4.482060648942516e-08	1.485654e+00	1.028692e-06
5.009404398942511e-08	1.518163e+00	9.636740e-07
5.575810648942506e-08	1.546615e+00	9.067703e-07
6.181279398942508e-08	1.571038e+00	8.579246e-07
6.825810648942523e-08	1.591612e+00	8.167768e-07
7.548466898942541e-08	1.609476e+00	7.810485e-07
8.349248148942560e-08	1.624364e+00	7.512713e-07
9.267216898942583e-08	1.636746e+00	7.265086e-07
1.034143564894261e-07	1.646738e+00	7.065247e-07
1.165002939894264e-07	1.654551e+00	6.908990e-07
1.334924814894268e-07	1.660363e+00	6.792736e-07
1.582971689894274e-07	1.664314e+00	6.713728e-07
1.911096689894282e-07	1.666136e+00	6.677282e-07
1.998987314894284e-07	1.666347e+00	6.673056e-07
2.000000000000000e-07	1.666349e+00	6.673015e-07
Step Information: C_d=80f  (Run: 4/5)
0.000000000000000e+00	1.666888e+00	6.662229e-07
1.000000000000000e-08	1.666888e+00	6.662229e-07
1.000953125000000e-08	1.657229e+00	6.855424e-07
1.002859375000000e-08	1.596529e+00	8.069424e-07
1.005028997800709e-08	1.495732e+00	1.008536e-06
1.007185211428515e-08	1.396163e+00	1.207675e-06
1.007774583193562e-08	1.372830e+00	1.254340e-06
1.008821256469906e-08	1.336403e+00	1.327194e-06
1.010000000000000e-08	1.298198e+00	1.403604e-06
1.010825120471066e-08	1.275010e+00	1.449980e-06
1.011768115295141e-08	1.251171e+00	1.497658e-06
1.013654104943291e-08	1.210677e+00	1.578646e-06
1.017426084239592e-08	1.148591e+00	1.702818e-06
1.022456041407398e-08	1.093390e+00	1.813221e-06
1.030000000000000e-08	1.039768e+00	1.920464e-06
1.030754395859260e-08	1.037176e+00	1.925649e-06
1.032263187577781e-08	1.032502e+00	1.934996e-06
1.035280771014821e-08	1.025732e+00	1.948536e-06
1.040000000000000e-08	1.019448e+00	1.961104e-06
1.440824892606625e-08	1.092775e+00	1.814450e-06
1.909574892606628e-08	1.168067e+00	1.663866e-06
2.436918642606632e-08	1.241034e+00	1.517932e-06
2.983793642606636e-08	1.305451e+00	1.389098e-06
3.550199892606630e-08	1.361915e+00	1.276169e-06
4.136137392606625e-08	1.411062e+00	1.177876e-06
4.741606142606619e-08	1.453542e+00	1.092917e-06
5.366606142606613e-08	1.490007e+00	1.019986e-06
6.030668642606609e-08	1.521947e+00	9.561055e-07
6.733793642606626e-08	1.549503e+00	9.009933e-07
7.475981142606644e-08	1.572928e+00	8.541446e-07
8.276762392606664e-08	1.592988e+00	8.140244e-07
9.155668642606685e-08	1.610111e+00	7.797777e-07
1.013223114260671e-07	1.624526e+00	7.509481e-07
1.124551239260674e-07	1.636551e+00	7.268983e-07
1.253457489260677e-07	1.646278e+00	7.074439e-07
1.409707489260680e-07	1.653989e+00	6.920224e-07
1.610879364260685e-07	1.659832e+00	6.803351e-07
1.894082489260692e-07	1.663871e+00	6.722588e-07
1.917519989260693e-07	1.664075e+00	6.718491e-07
1.999551239260695e-07	1.664689e+00	6.706221e-07
2.000000000000000e-07	1.664692e+00	6.706161e-07
Step Information: C_d=100f  (Run: 5/5)
0.000000000000000e+00	1.666888e+00	6.662229e-07
1.000000000000000e-08	1.666888e+00	6.662229e-07
1.000953125000000e-08	1.658720e+00	6.825599e-07
1.002859375000000e-08	1.606897e+00	7.862064e-07
1.005104187926338e-08	1.516845e+00	9.663108e-07
1.007341059154417e-08	1.425660e+00	1.148681e-06
1.008163489690790e-08	1.397358e+00	1.205284e-06
1.008903425951502e-08	1.373922e+00	1.252155e-06
1.010000000000000e-08	1.340889e+00	1.318223e-06
1.010767601833948e-08	1.320072e+00	1.359856e-06
1.011644861072746e-08	1.298170e+00	1.403661e-06
1.013399379550342e-08	1.259659e+00	1.480682e-06
1.016908416505534e-08	1.198490e+00	1.603020e-06
1.022981926089616e-08	1.123781e+00	1.752437e-06
1.030000000000000e-08	1.063832e+00	1.872337e-06
1.030701807391038e-08	1.060472e+00	1.879056e-06
1.032105422173115e-08	1.054282e+00	1.891437e-06
1.034912651737269e-08	1.045077e+00	1.909845e-06
1.040000000000000e-08	1.034729e+00	1.930543e-06
1.540800294055205e-08	1.109095e+00	1.781811e-06
2.107206544055210e-08	1.182719e+00	1.634562e-06
2.751737794055214e-08	1.254752e+00	1.490497e-06
3.415800294055212e-08	1.317776e+00	1.364448e-06
4.099394044055205e-08	1.372602e+00	1.254795e-06
4.802519044055198e-08	1.420027e+00	1.159947e-06
5.525175294055191e-08	1.460817e+00	1.078367e-06
6.286894044055195e-08	1.496538e+00	1.006924e-06
7.087675294055214e-08	1.527435e+00	9.451294e-07
7.927519044055235e-08	1.553838e+00	8.923247e-07
8.825956544055256e-08	1.576574e+00	8.468529e-07
9.802519044055280e-08	1.596132e+00	8.077358e-07
1.085720654405531e-07	1.612527e+00	7.749462e-07
1.202908154405533e-07	1.626328e+00	7.473433e-07
1.335720654405537e-07	1.637785e+00	7.244303e-07
1.491970654405540e-07	1.647193e+00	7.056131e-07
1.681423779405545e-07	1.654622e+00	6.907565e-07
1.915798779405551e-07	1.660060e+00	6.798806e-07
1.999783154405553e-07	1.661353e+00	6.772947e-07
2.000000000000000e-07	1.661356e+00	6.772887e-07
